Freq.	V(out)
1.00000000000000e+00	(-1.46840658005417e-01dB,-8.70458669681457e+01°)
1.07177346253629e+00	(4.62853229893934e-01dB,-8.68391167108847e+01°)
1.14869835499703e+00	(1.07365522430250e+00dB,-8.66187261431844e+01°)
1.23114441334492e+00	(1.68572165654940e+00dB,-8.63839847854331e+01°)
1.31950791077289e+00	(2.29922950387830e+00dB,-8.61341897861951e+01°)
1.41421356237309e+00	(2.91437868263210e+00dB,-8.58686586554764e+01°)
1.51571656651040e+00	(3.53139445283393e+00dB,-8.55867452015888e+01°)
1.62450479271247e+00	(4.15052988783806e+00dB,-8.52878592349187e+01°)
1.74110112659225e+00	(4.77206836670884e+00dB,-8.49714906510935e+01°)
1.86606598307361e+00	(5.39632596997205e+00dB,-8.46372385389732e+01°)
2.00000000000000e+00	(6.02365368156591e+00dB,-8.42848459665824e+01°)
2.14354692507259e+00	(6.65443922444165e+00dB,-8.39142410637515e+01°)
2.29739670999407e+00	(7.28910833528008e+00dB,-8.35255849283291e+01°)
2.46228882668983e+00	(7.92812521840853e+00dB,-8.31193267113328e+01°)
2.63901582154579e+00	(8.57199188827761e+00dB,-8.26962659609760e+01°)
2.82842712474619e+00	(9.22124604049419e+00dB,-8.22576218999493e+01°)
3.03143313302079e+00	(9.87645705570776e+00dB,-8.18051087556109e+01°)
3.24900958542494e+00	(1.05382197115262e+01dB,-8.13410155366399e+01°)
3.48220225318449e+00	(1.12071451741180e+01dB,-8.08682877584780e+01°)
3.73213196614723e+00	(1.18838488647473e+01dB,-8.03906075767577e+01°)
4.00000000000000e+00	(1.25689348854554e+01dB,-7.99124676559566e+01°)
4.28709385014517e+00	(1.32629768382867e+01dB,-7.94392329626724e+01°)
4.59479341998814e+00	(1.39664950580361e+01dB,-7.89771836831006e+01°)
4.92457765337966e+00	(1.46799306087553e+01dB,-7.85335317890331e+01°)
5.27803164309157e+00	(1.54036167058791e+01dB,-7.81164036402668e+01°)
5.65685424949238e+00	(1.61377486435361e+01dB,-7.77347816091391e+01°)
6.06286626604159e+00	(1.68823536872976e+01dB,-7.73983992244153e+01°)
6.49801917084988e+00	(1.76372627492267e+01dB,-7.71175868181969e+01°)
6.96440450636899e+00	(1.84020858991984e+01dB,-7.69030680770224e+01°)
7.46426393229445e+00	(1.91761938279256e+01dB,-7.67657120026972e+01°)
7.99999999999999e+00	(1.99587072807272e+01dB,-7.67162492064181e+01°)
8.57418770029034e+00	(2.07484960720916e+01dB,-7.67649656626809e+01°)
9.18958683997627e+00	(2.15441887402300e+01dB,-7.69213904923041e+01°)
9.84915530675932e+00	(2.23441931400567e+01dB,-7.71939964962383e+01°)
1.05560632861831e+01	(2.31467274169444e+01dB,-7.75899326593330e+01°)
1.13137084989847e+01	(2.39498599550389e+01dB,-7.81148065082664e+01°)
1.21257325320832e+01	(2.47515560966967e+01dB,-7.87725310973239e+01°)
1.29960383416998e+01	(2.55497288733822e+01dB,-7.95652467850000e+01°)
1.39288090127380e+01	(2.63422905861731e+01dB,-8.04933222925859e+01°)
1.49285278645889e+01	(2.71272020142608e+01dB,-8.15554333634519e+01°)
1.60000000000000e+01	(2.79025162539129e+01dB,-8.27487112736825e+01°)
1.71483754005807e+01	(2.86664146401626e+01dB,-8.40689480830324e+01°)
1.83791736799525e+01	(2.94172329287336e+01dB,-8.55108413973655e+01°)
1.96983106135186e+01	(3.01534767784867e+01dB,-8.70682589430096e+01°)
2.11121265723663e+01	(3.08738264734680e+01dB,-8.87345026561496e+01°)
2.26274169979695e+01	(3.15771317236881e+01dB,-9.05025532734422e+01°)
2.42514650641663e+01	(3.22623981417470e+01dB,-9.23652793518150e+01°)
2.59920766833995e+01	(3.29287675485541e+01dB,-9.43155988434457e+01°)
2.78576180254759e+01	(3.35754946224718e+01dB,-9.63465862917220e+01°)
2.98570557291778e+01	(3.42019224638133e+01dB,-9.84515238408471e+01°)
3.20000000000000e+01	(3.48074595503013e+01dB,-1.00623899098273e+02°)
3.42967508011613e+01	(3.53915602131332e+01dB,-1.02857357066820e+02°)
3.67583473599051e+01	(3.59537103302175e+01dB,-1.05145616652186e+02°)
3.93966212270373e+01	(3.64934193715716e+01dB,-1.07482364520886e+02°)
4.22242531447325e+01	(3.70102193439286e+01dB,-1.09861140305535e+02°)
4.52548339959390e+01	(3.75036705757113e+01dB,-1.12275227330908e+02°)
4.85029301283327e+01	(3.79733736753208e+01dB,-1.14717562186401e+02°)
5.19841533667990e+01	(3.84189864968770e+01dB,-1.17180674643956e+02°)
5.57152360509518e+01	(3.88402444434556e+01dB,-1.19656666663859e+02°)
5.97141114583556e+01	(3.92369821852213e+01dB,-1.22137235712141e+02°)
6.39999999999999e+01	(3.96091546521435e+01dB,-1.24613743530167e+02°)
6.85935016023226e+01	(3.99568552539588e+01dB,-1.27077327236964e+02°)
7.35166947198101e+01	(4.02803294968927e+01dB,-1.29519045614506e+02°)
7.87932424540745e+01	(4.05799826153643e+01dB,-1.31930050116856e+02°)
8.44485062894651e+01	(4.08563804019920e+01dB,-1.34301767959192e+02°)
9.05096679918779e+01	(4.11102430723102e+01dB,-1.36626083864260e+02°)
9.70058602566653e+01	(4.13424326273888e+01dB,-1.38895507729341e+02°)
1.03968306733598e+02	(4.15539347220394e+01dB,-1.41103317471377e+02°)
1.11430472101904e+02	(4.17458364268952e+01dB,-1.43243669252495e+02°)
1.19428222916711e+02	(4.19193014939014e+01dB,-1.45311670720915e+02°)
1.28000000000000e+02	(4.20755447192224e+01dB,-1.47303416325004e+02°)
1.37187003204645e+02	(4.22158068836175e+01dB,-1.49215986773879e+02°)
1.47033389439620e+02	(4.23413314746375e+01dB,-1.51047417027410e+02°)
1.57586484908149e+02	(4.24533440707063e+01dB,-1.52796638683555e+02°)
1.68897012578930e+02	(4.25530349477211e+01dB,-1.54463403304309e+02°)
1.81019335983756e+02	(4.26415451354031e+01dB,-1.56048193191883e+02°)
1.94011720513330e+02	(4.27199559149751e+01dB,-1.57552125580925e+02°)
2.07936613467196e+02	(4.27892815332965e+01dB,-1.58976855328332e+02°)
2.22860944203807e+02	(4.28504648007849e+01dB,-1.60324480145528e+02°)
2.38856445833422e+02	(4.29043751402936e+01dB,-1.61597451356095e+02°)
2.55999999999999e+02	(4.29518086561679e+01dB,-1.62798492185027e+02°)
2.74374006409290e+02	(4.29934897811753e+01dB,-1.63930524740200e+02°)
2.94066778879240e+02	(4.30300741174161e+01dB,-1.64996606168152e+02°)
3.15172969816298e+02	(4.30621521049110e+01dB,-1.65999873945597e+02°)
3.37794025157860e+02	(4.30902532336446e+01dB,-1.66943499903084e+02°)
3.62038671967511e+02	(4.31148505593134e+01dB,-1.67830652335803e+02°)
3.88023441026661e+02	(4.31363653195392e+01dB,-1.68664465417557e+02°)
4.15873226934391e+02	(4.31551715244992e+01dB,-1.69448015077483e+02°)
4.45721888407614e+02	(4.31716004004872e+01dB,-1.70184300493099e+02°)
4.77712891666844e+02	(4.31859446184797e+01dB,-1.70876230390988e+02°)
5.11999999999999e+02	(4.31984622689262e+01dB,-1.71526613406299e+02°)
5.48748012818581e+02	(4.32093805348567e+01dB,-1.72138151822723e+02°)
5.88133557758480e+02	(4.32188990756227e+01dB,-1.72713438096562e+02°)
6.30345939632595e+02	(4.32271931018754e+01dB,-1.73254953642817e+02°)
6.75588050315720e+02	(4.32344161630539e+01dB,-1.73765069438240e+02°)
7.24077343935023e+02	(4.32407026473316e+01dB,-1.74246048062409e+02°)
7.76046882053321e+02	(4.32461700288084e+01dB,-1.74700046862168e+02°)
8.31746453868783e+02	(4.32509208599623e+01dB,-1.75129121975666e+02°)
8.91443776815228e+02	(4.32550445450438e+01dB,-1.75535233002712e+02°)
9.55425783333688e+02	(4.32586189072525e+01dB,-1.75920248146665e+02°)
1.02400000000000e+03	(4.32617115711525e+01dB,-1.76285949688401e+02°)
1.09749602563716e+03	(4.32643811705495e+01dB,-1.76634039680845e+02°)
1.17626711551696e+03	(4.32666784147257e+01dB,-1.76966145779260e+02°)
1.26069187926519e+03	(4.32686470077784e+01dB,-1.77283827138845e+02°)
1.35117610063144e+03	(4.32703244522025e+01dB,-1.77588580331688e+02°)
1.44815468787004e+03	(4.32717427424201e+01dB,-1.77881845246312e+02°)
1.55209376410664e+03	(4.32729289557562e+01dB,-1.78165010944299e+02°)
1.66349290773756e+03	(4.32739057610138e+01dB,-1.78439421459293e+02°)
1.78288755363046e+03	(4.32746918321335e+01dB,-1.78706381526663e+02°)
1.91085156666738e+03	(4.32753022119683e+01dB,-1.78967162246111e+02°)
2.04799999999999e+03	(4.32757485824646e+01dB,-1.79223006671466e+02°)
2.19499205127432e+03	(4.32760394912076e+01dB,-1.79475135339196e+02°)
2.35253423103392e+03	(4.32761805111801e+01dB,-1.79724751739186e+02°)
2.52138375853038e+03	(4.32761743446469e+01dB,-1.79973047738310e+02°)
2.70235220126288e+03	(4.32760208766594e+01dB,1.79778791031757e+02°)
2.89630937574009e+03	(4.32757171701043e+01dB,1.79529579813032e+02°)
3.10418752821328e+03	(4.32752574125459e+01dB,1.79278129372550e+02°)
3.32698581547513e+03	(4.32746328060039e+01dB,1.79023240657284e+02°)
3.56577510726091e+03	(4.32738314026948e+01dB,1.78763699441698e+02°)
3.82170313333475e+03	(4.32728378799946e+01dB,1.78498270960671e+02°)
4.09599999999998e+03	(4.32716332532853e+01dB,1.78225694521332e+02°)
4.38998410254864e+03	(4.32701945216474e+01dB,1.77944678090996e+02°)
4.70506846206784e+03	(4.32684942393723e+01dB,1.77653892862773e+02°)
5.04276751706076e+03	(4.32665000062719e+01dB,1.77351967805279e+02°)
5.40470440252575e+03	(4.32641738708757e+01dB,1.77037484208269e+02°)
5.79261875148017e+03	(4.32614716297067e+01dB,1.76708970247987e+02°)
6.20837505642657e+03	(4.32583420240494e+01dB,1.76364895597824e+02°)
6.65397163095026e+03	(4.32547258080355e+01dB,1.76003666133001e+02°)
7.13155021452182e+03	(4.32505546867613e+01dB,1.75623618781371e+02°)
7.64340626666950e+03	(4.32457500956481e+01dB,1.75223016603059e+02°)
8.19199999999997e+03	(4.32402218250924e+01dB,1.74800044185231e+02°)
8.77996820509728e+03	(4.32338664510115e+01dB,1.74352803487483e+02°)
9.41013692413567e+03	(4.32265655695874e+01dB,1.73879310283060e+02°)
1.00855350341215e+04	(4.32181838099138e+01dB,1.73377491391568e+02°)
1.08094088050515e+04	(4.32085666126796e+01dB,1.72845182932718e+02°)
1.15852375029603e+04	(4.31975377535115e+01dB,1.72280129887961e+02°)
1.24167501128531e+04	(4.31848966033800e+01dB,1.71679987304863e+02°)
1.33079432619005e+04	(4.31704151146635e+01dB,1.71042323548616e+02°)
1.42631004290436e+04	(4.31538345244048e+01dB,1.70364626080622e+02°)
1.52868125333390e+04	(4.31348618023430e+01dB,1.69644310290494e+02°)
1.63839999999999e+04	(4.31131658412853e+01dB,1.68878732029055e+02°)
1.75599364101946e+04	(4.30883734508706e+01dB,1.68065204515462e+02°)
1.88202738482713e+04	(4.30600651954137e+01dB,1.67201020407278e+02°)
2.01710700682430e+04	(4.30277711866301e+01dB,1.66283479819928e+02°)
2.16188176101030e+04	(4.29909669544662e+01dB,1.65309925123691e+02°)
2.31704750059207e+04	(4.29490695505205e+01dB,1.64277783339750e+02°)
2.48335002257063e+04	(4.29014341217666e+01dB,1.63184616806556e+02°)
2.66158865238010e+04	(4.28473512134985e+01dB,1.62028182651622e+02°)
2.85262008580873e+04	(4.27860451355729e+01dB,1.60806501271754e+02°)
3.05736250666780e+04	(4.27166737651917e+01dB,1.59517933611449e+02°)
3.27679999999998e+04	(4.26383302169930e+01dB,1.58161266404106e+02°)
3.51198728203891e+04	(4.25500468274666e+01dB,1.56735803794184e+02°)
3.76405476965427e+04	(4.24508019085597e+01dB,1.55241462807683e+02°)
4.03421401364860e+04	(4.23395296675264e+01dB,1.53678869128972e+02°)
4.32376352202060e+04	(4.22151336139324e+01dB,1.52049448491311e+02°)
4.63409500118414e+04	(4.20765036028387e+01dB,1.50355507988204e+02°)
4.96670004514125e+04	(4.19225364397618e+01dB,1.48600300798816e+02°)
5.32317730476020e+04	(4.17521596938937e+01dB,1.46788067383445e+02°)
5.70524017161745e+04	(4.15643580315777e+01dB,1.44924046391710e+02°)
6.11472501333559e+04	(4.13582010327154e+01dB,1.43014449475429e+02°)
6.55359999999997e+04	(4.11328711444650e+01dB,1.41066395931696e+02°)
7.02397456407782e+04	(4.08876901878302e+01dB,1.39087805668667e+02°)
7.52810953930853e+04	(4.06221427273771e+01dB,1.37087252152619e+02°)
8.06842802729720e+04	(4.03358946714645e+01dB,1.35073780475880e+02°)
8.64752704404120e+04	(4.00288057248484e+01dB,1.33056698934650e+02°)
9.26819000236827e+04	(3.97009347267262e+01dB,1.31045355188716e+02°)
9.93340009028249e+04	(3.93525374537148e+01dB,1.29048909652167e+02°)
1.06463546095204e+05	(3.89840570596416e+01dB,1.27076119099748e+02°)
1.14104803432349e+05	(3.85961079058273e+01dB,1.25135142359451e+02°)
1.22294500266712e+05	(3.81894540157110e+01dB,1.23233377654211e+02°)
1.31071999999999e+05	(3.77649836905768e+01dB,1.21377338227931e+02°)
1.40479491281556e+05	(3.73236819862036e+01dB,1.19572569234576e+02°)
1.50562190786171e+05	(3.68666026889458e+01dB,1.17823605723600e+02°)
1.61368560545944e+05	(3.63948412558603e+01dB,1.16133968588241e+02°)
1.72950540880824e+05	(3.59095098888780e+01dB,1.14506193291187e+02°)
1.85363800047365e+05	(3.54117155762928e+01dB,1.12941884895640e+02°)
1.98668001805650e+05	(3.49025415923996e+01dB,1.11441792477209e+02°)
2.12927092190408e+05	(3.43830326421734e+01dB,1.10005896132955e+02°)
2.28209606864698e+05	(3.38541835823557e+01dB,1.08633500534287e+02°)
2.44589000533424e+05	(3.33169314684472e+01dB,1.07323329882009e+02°)
2.62143999999999e+05	(3.27721505528459e+01dB,1.06073620274722e+02°)
2.80958982563112e+05	(3.22206498014895e+01dB,1.04882206489105e+02°)
3.01124381572341e+05	(3.16631724738192e+01dB,1.03746601250457e+02°)
3.22737121091888e+05	(3.11003973301190e+01dB,1.02664065863506e+02°)
3.45901081761648e+05	(3.05329410692593e+01dB,1.01631671724352e+02°)
3.70727600094731e+05	(2.99613616488412e+01dB,1.00646352779096e+02°)
3.97336003611300e+05	(2.93861621963837e+01dB,9.97049493307662e+01°)
4.25854184380816e+05	(2.88077952755737e+01dB,9.88042438178892e+01°)
4.56419213729396e+05	(2.82266673219854e+01dB,9.79409893465252e+01°)
4.89178001066847e+05	(2.76431431094652e+01dB,9.71119317744771e+01°)
5.24287999999997e+05	(2.70575501460369e+01dB,9.63138261899359e+01°)
5.61917965126225e+05	(2.64701829315456e+01dB,9.55434485610652e+01°)
6.02248763144682e+05	(2.58813070350781e+01dB,9.47976032882372e+01°)
6.45474242183776e+05	(2.52911629707675e+01dB,9.40731273325776e+01°)
6.91802163523295e+05	(2.46999698673103e+01dB,9.33668914933137e+01°)
7.41455200189461e+05	(2.41079289378031e+01dB,9.26757993794878e+01°)
7.94672007222599e+05	(2.35152267664862e+01dB,9.19967845149629e+01°)
8.51708368761631e+05	(2.29220384350755e+01dB,9.13268059820793e+01°)
9.12838427458791e+05	(2.23285305161630e+01dB,9.06628429583704e+01°)
9.78356002133693e+05	(2.17348639645508e+01dB,9.00018884535027e+01°)
1.04857599999999e+06	(2.11411969394277e+01dB,8.93409425294203e+01°)
1.12383593025245e+06	(2.05476875915666e+01dB,8.86770052701916e+01°)
1.20449752628936e+06	(1.99544968504796e+01dB,8.80070697456433e+01°)
1.29094848436755e+06	(1.93617912462337e+01dB,8.73281152321171e+01°)
1.38360432704659e+06	(1.87697458002376e+01dB,8.66371009465038e+01°)
1.48291040037892e+06	(1.81785470179389e+01dB,8.59309605751066e+01°)
1.58934401444520e+06	(1.75883960141929e+01dB,8.52065979122693e+01°)
1.70341673752326e+06	(1.69995117988872e+01dB,8.44608839560658e+01°)
1.82567685491758e+06	(1.64121347456315e+01dB,8.36906558647995e+01°)
1.95671200426739e+06	(1.58265302597949e+01dB,8.28927182261531e+01°)
2.09715199999999e+06	(1.52429926530421e+01dB,8.20638471619352e+01°)
2.24767186050490e+06	(1.46618492193279e+01dB,8.12007978640235e+01°)
2.40899505257873e+06	(1.40834644913247e+01dB,8.03003162166705e+01°)
2.58189696873510e+06	(1.35082446354396e+01dB,7.93591552441693e+01°)
2.76720865409318e+06	(1.29366419174672e+01dB,7.83740971668276e+01°)
2.96582080075784e+06	(1.23691591385505e+01dB,7.73419818876288e+01°)
3.17868802889039e+06	(1.18063539021704e+01dB,7.62597427333054e+01°)
3.40683347504652e+06	(1.12488425274267e+01dB,7.51244502103508e+01°)
3.65135370983516e+06	(1.06973033725495e+01dB,7.39333644149204e+01°)
3.91342400853477e+06	(1.01524792774626e+01dB,7.26839964983293e+01°)
4.19430399999997e+06	(9.61517877854873e+00dB,7.13741792397280e+01°)
4.49534372100979e+06	(9.08627569794850e+00dB,7.00021462705650e+01°)
4.81799010515745e+06	(8.56670667114441e+00dB,6.85666188306134e+01°)
5.16379393747020e+06	(8.05746616000345e+00dB,6.70668980970830e+01°)
5.53441730818636e+06	(7.55959851537586e+00dB,6.55029601450409e+01°)
5.93164160151568e+06	(7.07418671615899e+00dB,6.38755495189747e+01°)
6.35737605778078e+06	(6.60233753183622e+00dB,6.21862663032014e+01°)
6.81366695009304e+06	(6.14516304059938e+00dB,6.04376406157800e+01°)
7.30270741967032e+06	(5.70375868606711e+00dB,5.86331877755226e+01°)
7.82684801706954e+06	(5.27917836273586e+00dB,5.67774371984722e+01°)
8.38860799999994e+06	(4.87240736112103e+00dB,5.48759285525691e+01°)
8.99068744201959e+06	(4.48433434203252e+00dB,5.29351699621683e+01°)
9.63598021031490e+06	(4.11572379856192e+00dB,5.09625551579196e+01°)
1.00000000000000e+07	(3.92674033705623e+00dB,4.98969955615522e+01°)
